# Hz S RI R 50
!Freq.(Hz) S11(Real) S11(Imag) S21(Real) S21(Imag) S12(Real) S12(Imag) S22(Real) S22(Imag)
1.0E8 0.8099186718104848 -0.3921710149457651 0.19008132818951515 0.3921710149457651 0.19008132818951515 0.3921710149457651 0.8099186718104848 -0.3921710149457651
1.21E8 0.744097550396086 -0.4361319786073223 0.255902449603914 0.4361319786073223 0.255902449603914 0.4361319786073223 0.744097550396086 -0.4361319786073223
1.42E8 0.6783660566757002 -0.46682672939663017 0.32163394332429984 0.46682672939663017 0.32163394332429984 0.46682672939663017 0.6783660566757002 -0.46682672939663017
1.63E8 0.615202019051558 -0.4862292970810891 0.38479798094844186 0.4862292970810891 0.38479798094844186 0.4862292970810891 0.615202019051558 -0.4862292970810891
1.84E8 0.5561378014848819 -0.4964784429697236 0.44386219851511816 0.4964784429697236 0.44386219851511816 0.4964784429697236 0.5561378014848819 -0.4964784429697236
2.05E8 0.5019573831430371 -0.499593857959444 0.49804261685696294 0.499593857959444 0.49804261685696294 0.499593857959444 0.5019573831430371 -0.499593857959444
2.26E8 0.4529126275148444 -0.497332972727656 0.5470873724851556 0.497332972727656 0.5470873724851556 0.497332972727656 0.4529126275148444 -0.497332972727656
2.47E8 0.40891083137499656 -0.49114493261506514 0.5910891686250034 0.49114493261506514 0.5910891686250034 0.49114493261506514 0.40891083137499656 -0.49114493261506514
2.68E8 0.36965760776115897 -0.4821807843093015 0.6303423922388411 0.4821807843093015 0.6303423922388411 0.4821807843093015 0.36965760776115897 -0.4821807843093015
2.89E8 0.33475655235117235 -0.4713302418089295 0.6652434476488277 0.4713302418089295 0.6652434476488277 0.4713302418089295 0.33475655235117235 -0.4713302418089295
3.1E8 0.3037740225361639 -0.459266854250519 0.6962259774638361 0.459266854250519 0.6962259774638361 0.459266854250519 0.3037740225361639 -0.459266854250519
3.31E8 0.2762784746032728 -0.44649192469644494 0.7237215253967271 0.44649192469644494 0.7237215253967271 0.44649192469644494 0.2762784746032728 -0.44649192469644494
3.52E8 0.2518624732280627 -0.4333729196092619 0.7481375267719372 0.4333729196092619 0.7481375267719372 0.4333729196092619 0.2518624732280627 -0.4333729196092619
3.73E8 0.2301535112230781 -0.4201751266578612 0.7698464887769219 0.4201751266578612 0.7698464887769219 0.4201751266578612 0.2301535112230781 -0.4201751266578612
3.94E8 0.21081794670287862 -0.4070868121488738 0.7891820532971214 0.4070868121488738 0.7891820532971214 0.4070868121488738 0.21081794670287862 -0.4070868121488738
4.15E8 0.1935609290879653 -0.39423874531640385 0.8064390709120346 0.39423874531640385 0.8064390709120346 0.39423874531640385 0.1935609290879653 -0.39423874531640385
4.36E8 0.17812415353738786 -0.3817191134696752 0.8218758464626121 0.3817191134696752 0.8218758464626121 0.3817191134696752 0.17812415353738786 -0.3817191134696752
4.57E8 0.16428258099323387 -0.3695847943978436 0.8357174190067662 0.3695847943978436 0.8357174190067662 0.3695847943978436 0.16428258099323387 -0.3695847943978436
4.78E8 0.15184080064386454 -0.35786981256988737 0.8481591993561354 0.35786981256988737 0.8481591993561354 0.35786981256988737 0.15184080064386454 -0.35786981256988737
4.99E8 0.14062941869012466 -0.346591649166628 0.8593705813098753 0.346591649166628 0.8593705813098753 0.346591649166628 0.14062941869012466 -0.346591649166628
5.2E8 0.1305016758014696 -0.3357559319125427 0.8694983241985305 0.3357559319125427 0.8694983241985305 0.3357559319125427 0.1305016758014696 -0.3357559319125427
5.41E8 0.12133038625602435 -0.32535990928892883 0.8786696137439758 0.32535990928892883 0.8786696137439758 0.32535990928892883 0.12133038625602435 -0.32535990928892883
5.62E8 0.11300522800429895 -0.3153950163000181 0.8869947719957011 0.3153950163000181 0.8869947719957011 0.3153950163000181 0.11300522800429895 -0.3153950163000181
5.83E8 0.10543037746115852 -0.30584876305611 0.8945696225388415 0.30584876305611 0.8945696225388415 0.30584876305611 0.10543037746115852 -0.30584876305611
6.04E8 0.09852246461074243 -0.2967061193702415 0.9014775353892575 0.2967061193702415 0.9014775353892575 0.2967061193702415 0.09852246461074243 -0.2967061193702415
6.25E8 0.09220881600193148 -0.2879505246673069 0.9077911839980687 0.2879505246673069 0.9077911839980687 0.2879505246673069 0.09220881600193148 -0.2879505246673069
6.46E8 0.08642595106714265 -0.27956461956754397 0.9135740489328574 0.27956461956754397 0.9135740489328574 0.27956461956754397 0.08642595106714265 -0.27956461956754397
6.67E8 0.0811182982531957 -0.2715307709068306 0.9188817017468042 0.2715307709068306 0.9188817017468042 0.2715307709068306 0.0811182982531957 -0.2715307709068306
6.88E8 0.0762371001107925 -0.26383144363147154 0.9237628998892075 0.26383144363147154 0.9237628998892075 0.26383144363147154 0.0762371001107925 -0.26383144363147154
7.09E8 0.07173947981085875 -0.25644945937103636 0.9282605201891412 0.25644945937103636 0.9282605201891412 0.25644945937103636 0.07173947981085875 -0.25644945937103636
7.3E8 0.06758764501009937 -0.2493681713509931 0.9324123549899006 0.2493681713509931 0.9324123549899006 0.2493681713509931 0.06758764501009937 -0.2493681713509931
7.51E8 0.06374820828959812 -0.24257157775955462 0.936251791710402 0.24257157775955462 0.936251791710402 0.24257157775955462 0.06374820828959812 -0.24257157775955462
7.72E8 0.06019160640100252 -0.23604439006169223 0.9398083935989974 0.23604439006169223 0.9398083935989974 0.23604439006169223 0.06019160640100252 -0.23604439006169223
7.93E8 0.056891603221972155 -0.22977206856146937 0.9431083967780277 0.22977206856146937 0.9431083967780277 0.22977206856146937 0.056891603221972155 -0.22977206856146937
8.14E8 0.05382486364111042 -0.22374083438417525 0.9461751363588896 0.22374083438417525 0.9461751363588896 0.22374083438417525 0.05382486364111042 -0.22374083438417525
8.35E8 0.05097058758260455 -0.21793766471006515 0.9490294124173955 0.21793766471006515 0.9490294124173955 0.21793766471006515 0.05097058758260455 -0.21793766471006515
8.56E8 0.04831019507404599 -0.2123502763403554 0.9516898049259539 0.2123502763403554 0.9516898049259539 0.2123502763403554 0.04831019507404599 -0.2123502763403554
8.77E8 0.045827054693109014 -0.20696710136408678 0.9541729453068908 0.20696710136408678 0.9541729453068908 0.20696710136408678 0.045827054693109014 -0.20696710136408678
8.98E8 0.043506248935369335 -0.20177725771069735 0.956493751064631 0.20177725771069735 0.956493751064631 0.20177725771069735 0.043506248935369335 -0.20177725771069735
9.19E8 0.041334371059485724 -0.19677051663518003 0.9586656289405143 0.19677051663518003 0.9586656289405143 0.19677051663518003 0.041334371059485724 -0.19677051663518003
9.4E8 0.03929934881673283 -0.1919372686291251 0.9607006511832672 0.1919372686291251 0.9607006511832672 0.1919372686291251 0.03929934881673283 -0.1919372686291251
9.61E8 0.03739029118522375 -0.18726848883590372 0.9626097088147761 0.18726848883590372 0.9626097088147761 0.18726848883590372 0.03739029118522375 -0.18726848883590372
9.82E8 0.03559735482723416 -0.182755702737441 0.9644026451727656 0.182755702737441 0.9644026451727656 0.182755702737441 0.03559735482723416 -0.182755702737441
1.003E9 0.033911627489656364 -0.17839095264773525 0.9660883725103439 0.17839095264773525 0.9660883725103439 0.17839095264773525 0.033911627489656364 -0.17839095264773525
1.024E9 0.03232502598863466 -0.17416676537518389 0.9676749740113652 0.17416676537518389 0.9676749740113652 0.17416676537518389 0.03232502598863466 -0.17416676537518389
1.045E9 0.030830206773179377 -0.17007612128735305 0.9691697932268206 0.17007612128735305 0.9691697932268206 0.17007612128735305 0.030830206773179377 -0.17007612128735305
1.066E9 0.029420487360137818 -0.1661124249170883 0.9705795126398622 0.1661124249170883 0.9705795126398622 0.1661124249170883 0.029420487360137818 -0.1661124249170883
1.087E9 0.028089777183595795 -0.16226947717956094 0.9719102228164042 0.16226947717956094 0.9719102228164042 0.16226947717956094 0.028089777183595795 -0.16226947717956094
1.108E9 0.026832516613298735 -0.15854144921968535 0.9731674833867013 0.15854144921968535 0.9731674833867013 0.15854144921968535 0.026832516613298735 -0.15854144921968535
1.129E9 0.025643623075438323 -0.15492285787360482 0.9743563769245618 0.15492285787360482 0.9743563769245618 0.15492285787360482 0.025643623075438323 -0.15492285787360482
1.15E9 0.024518443360482572 -0.15140854270303045 0.9754815566395176 0.15140854270303045 0.9754815566395176 0.15140854270303045 0.024518443360482572 -0.15140854270303045
1.171E9 0.023452711331064913 -0.14799364454438857 0.9765472886689351 0.14799364454438857 0.9765472886689351 0.14799364454438857 0.023452711331064913 -0.14799364454438857
1.192E9 0.022442510351988788 -0.14467358550394124 0.9775574896480113 0.14467358550394124 0.9775574896480113 0.14467358550394124 0.022442510351988788 -0.14467358550394124
1.213E9 0.021484239857215225 -0.14144405032370183 0.9785157601427849 0.14144405032370183 0.9785157601427849 0.14144405032370183 0.021484239857215225 -0.14144405032370183
1.234E9 0.02057458554784752 -0.138300969039898 0.9794254144521525 0.138300969039898 0.9794254144521525 0.138300969039898 0.02057458554784752 -0.138300969039898
1.255E9 0.019710492782745743 -0.1352405008550327 0.9802895072172542 0.1352405008550327 0.9802895072172542 0.1352405008550327 0.019710492782745743 -0.1352405008550327
1.276E9 0.01888914278128045 -0.13225901914557658 0.9811108572187197 0.13225901914557658 0.9811108572187197 0.13225901914557658 0.01888914278128045 -0.13225901914557658
1.297E9 0.018107931307367098 -0.1293530975294877 0.9818920686926329 0.1293530975294877 0.9818920686926329 0.1293530975294877 0.018107931307367098 -0.1293530975294877
1.318E9 0.017364449546560537 -0.12651949692070477 0.9826355504534394 0.12651949692070477 0.9826355504534394 0.12651949692070477 0.017364449546560537 -0.12651949692070477
1.339E9 0.016656466924687835 -0.12375515350121492 0.9833435330753121 0.12375515350121492 0.9833435330753121 0.12375515350121492 0.016656466924687835 -0.12375515350121492
1.36E9 0.015981915648140017 -0.12105716754504409 0.9840180843518601 0.12105716754504409 0.9840180843518601 0.12105716754504409 0.015981915648140017 -0.12105716754504409
1.381E9 0.01533887677327579 -0.1184227930323983 0.984661123226724 0.1184227930323983 0.984661123226724 0.1184227930323983 0.01533887677327579 -0.1184227930323983
1.402E9 0.014725567636041144 -0.11584942799608698 0.9852744323639592 0.11584942799608698 0.9852744323639592 0.11584942799608698 0.014725567636041144 -0.11584942799608698
1.423E9 0.01414033049340982 -0.113334605546202 0.9858596695065902 0.113334605546202 0.9858596695065902 0.113334605546202 0.01414033049340982 -0.113334605546202
1.444E9 0.013581622246050858 -0.11087598552275717 0.9864183777539491 0.11087598552275717 0.9864183777539491 0.11087598552275717 0.013581622246050858 -0.11087598552275717
1.465E9 0.013048005127112069 -0.10847134672956417 0.986951994872888 0.10847134672956417 0.986951994872888 0.10847134672956417 0.013048005127112069 -0.10847134672956417
1.486E9 0.012538138255497686 -0.10611857970602402 0.9874618617445025 0.10611857970602402 0.9874618617445025 0.10611857970602402 0.012538138255497686 -0.10611857970602402
1.507E9 0.012050769963789499 -0.10381567999672059 0.9879492300362106 0.10381567999672059 0.9879492300362106 0.10381567999672059 0.012050769963789499 -0.10381567999672059
1.528E9 0.01158473082124941 -0.10156074188171718 0.9884152691787508 0.10156074188171718 0.9884152691787508 0.10156074188171718 0.01158473082124941 -0.10156074188171718
1.549E9 0.011138927281348063 -0.09935195253327347 0.9888610727186519 0.09935195253327347 0.9888610727186519 0.09935195253327347 0.011138927281348063 -0.09935195253327347
1.57E9 0.010712335891161887 -0.09718758656732793 0.9892876641088382 0.09718758656732793 0.9892876641088382 0.09718758656732793 0.010712335891161887 -0.09718758656732793
1.591E9 0.010303998006915147 -0.0950660009605264 0.9896960019930847 0.0950660009605264 0.9896960019930847 0.0950660009605264 0.010303998006915147 -0.0950660009605264
1.612E9 0.0099130149660426 -0.09298563030584081 0.9900869850339574 0.09298563030584081 0.9900869850339574 0.09298563030584081 0.0099130149660426 -0.09298563030584081
1.633E9 0.009538543671519463 -0.09094498238191061 0.9904614563284805 0.09094498238191061 0.9904614563284805 0.09094498238191061 0.009538543671519463 -0.09094498238191061
1.654E9 0.00917979254894326 -0.08894263401317457 0.9908202074510566 0.08894263401317457 0.9908202074510566 0.08894263401317457 0.00917979254894326 -0.08894263401317457
1.675E9 0.008836017841035958 -0.08697722719963866 0.9911639821589643 0.08697722719963866 0.9911639821589643 0.08697722719963866 0.008836017841035958 -0.08697722719963866
1.696E9 0.008506520207936524 -0.08504746549677292 0.9914934797920635 0.08504746549677292 0.9914934797920635 0.08504746549677292 0.008506520207936524 -0.08504746549677292
1.717E9 0.008190641604931369 -0.0831521106275401 0.9918093583950686 0.0831521106275401 0.9918093583950686 0.0831521106275401 0.008190641604931369 -0.0831521106275401
1.738E9 0.007887762412177616 -0.08128997930995316 0.9921122375878223 0.08128997930995316 0.9921122375878223 0.08128997930995316 0.007887762412177616 -0.08128997930995316
1.759E9 0.007597298793555512 -0.07945994028484002 0.9924027012064446 0.07945994028484002 0.9924027012064446 0.07945994028484002 0.007597298793555512 -0.07945994028484002
1.78E9 0.007318700264081993 -0.07766091152967303 0.9926812997359179 0.07766091152967303 0.9926812997359179 0.07766091152967303 0.007318700264081993 -0.07766091152967303
1.801E9 0.0070514474473607576 -0.07589185764540379 0.9929485525526393 0.07589185764540379 0.9929485525526393 0.07589185764540379 0.0070514474473607576 -0.07589185764540379
1.822E9 0.006795050006366255 -0.07415178740424201 0.9932049499936336 0.07415178740424201 0.9932049499936336 0.07415178740424201 0.006795050006366255 -0.07415178740424201
1.843E9 0.006549044732484725 -0.07243975144723369 0.9934509552675154 0.07243975144723369 0.9934509552675154 0.07243975144723369 0.006549044732484725 -0.07243975144723369
1.864E9 0.006312993779188018 -0.07075484012133545 0.9936870062208119 0.07075484012133545 0.9936870062208119 0.07075484012133545 0.006312993779188018 -0.07075484012133545
1.885E9 0.0060864830280160384 -0.06909618144646011 0.9939135169719838 0.06909618144646011 0.9939135169719838 0.06909618144646011 0.0060864830280160384 -0.06909618144646011
1.906E9 0.005869120575707125 -0.06746293920367814 0.994130879424293 0.06746293920367814 0.994130879424293 0.06746293920367814 0.005869120575707125 -0.06746293920367814
1.927E9 0.005660535332359816 -0.06585431113641951 0.9943394646676401 0.06585431113641951 0.9943394646676401 0.06585431113641951 0.005660535332359816 -0.06585431113641951
1.948E9 0.0054603757214460764 -0.06426952725712165 0.9945396242785538 0.06426952725712165 0.9945396242785538 0.06426952725712165 0.0054603757214460764 -0.06426952725712165
1.969E9 0.005268308473337911 -0.06270784825232634 0.9947316915266621 0.06270784825232634 0.9947316915266621 0.06270784825232634 0.005268308473337911 -0.06270784825232634
1.99E9 0.0050840175047667064 -0.061168563979740576 0.9949159824952333 0.061168563979740576 0.9949159824952333 0.061168563979740576 0.0050840175047667064 -0.061168563979740576
2.011E9 0.004907202877316572 -0.05965099205124722 0.9950927971226835 0.05965099205124722 0.9950927971226835 0.05965099205124722 0.004907202877316572 -0.05965099205124722
2.032E9 0.004737579828667592 -0.05815447649628649 0.9952624201713324 0.05815447649628649 0.9952624201713324 0.05815447649628649 0.004737579828667592 -0.05815447649628649
2.053E9 0.004574877870859754 -0.056678386500429626 0.9954251221291404 0.056678386500429626 0.9954251221291404 0.056678386500429626 0.004574877870859754 -0.056678386500429626
2.074E9 0.0044188399503492905 -0.05522211521433594 0.9955811600496507 0.05522211521433594 0.9955811600496507 0.05522211521433594 0.0044188399503492905 -0.05522211521433594
2.095E9 0.004269221665082181 -0.05378507862862496 0.9957307783349179 0.05378507862862496 0.9957307783349179 0.05378507862862496 0.004269221665082181 -0.05378507862862496
2.116E9 0.004125790534219511 -0.052366714510510164 0.9958742094657805 0.052366714510510164 0.9958742094657805 0.052366714510510164 0.004125790534219511 -0.052366714510510164
2.137E9 0.003988325316520789 -0.05096648139833167 0.9960116746834792 0.05096648139833167 0.9960116746834792 0.05096648139833167 0.003988325316520789 -0.05096648139833167
2.158E9 0.0038566153737279894 -0.04958385765039334 0.996143384626272 0.04958385765039334 0.996143384626272 0.04958385765039334 0.0038566153737279894 -0.04958385765039334
2.179E9 0.003730460075598672 -0.048218340544757834 0.9962695399244014 0.048218340544757834 0.9962695399244014 0.048218340544757834 0.003730460075598672 -0.048218340544757834
2.2E9 0.0036096682435140903 -0.04686944542688326 0.9963903317564858 0.04686944542688326 0.9963903317564858 0.04686944542688326 0.0036096682435140903 -0.04686944542688326
2.221E9 0.0034940576298404897 -0.045536704902196336 0.9965059423701594 0.045536704902196336 0.9965059423701594 0.045536704902196336 0.0034940576298404897 -0.045536704902196336
2.242E9 0.003383454430451442 -0.04421966807089443 0.9966165455695484 0.04421966807089443 0.9966165455695484 0.04421966807089443 0.003383454430451442 -0.04421966807089443
2.263E9 0.003277692828028044 -0.04291789980244969 0.9967223071719719 0.04291789980244969 0.9967223071719719 0.04291789980244969 0.003277692828028044 -0.04291789980244969
2.284E9 0.003176614563944541 -0.04163098004745846 0.9968233854360554 0.04163098004745846 0.9968233854360554 0.04163098004745846 0.003176614563944541 -0.04163098004745846
2.305E9 0.003080068536720566 -0.04035850318463392 0.9969199314632791 0.04035850318463392 0.9969199314632791 0.04035850318463392 0.003080068536720566 -0.04035850318463392
2.326E9 0.002987910425180035 -0.039100077400885946 0.99701208957482 0.039100077400885946 0.99701208957482 0.039100077400885946 0.002987910425180035 -0.039100077400885946
2.347E9 0.0029000023346016503 -0.037855324102565716 0.9970999976653986 0.037855324102565716 0.9970999976653986 0.037855324102565716 0.0029000023346016503 -0.037855324102565716
2.368E9 0.00281621246427854 -0.03662387735607813 0.9971837875357216 0.03662387735607813 0.9971837875357216 0.03662387735607813 0.00281621246427854 -0.03662387735607813
2.389E9 0.0027364147950259174 -0.03540538335618046 0.9972635852049742 0.03540538335618046 0.9972635852049742 0.03540538335618046 0.0027364147950259174 -0.03540538335618046
2.41E9 0.0026604887952866646 -0.034199499920393346 0.9973395112047133 0.034199499920393346 0.9973395112047133 0.034199499920393346 0.0026604887952866646 -0.034199499920393346
2.431E9 0.0025883191445866256 -0.03300589600805088 0.9974116808554135 0.03300589600805088 0.9974116808554135 0.03300589600805088 0.0025883191445866256 -0.03300589600805088
2.452E9 0.002519795473184708 -0.03182425126260858 0.9974802045268152 0.03182425126260858 0.9974802045268152 0.03182425126260858 0.002519795473184708 -0.03182425126260858
2.473E9 0.002454812116848631 -0.030654255575916018 0.9975451878831513 0.030654255575916018 0.9975451878831513 0.030654255575916018 0.002454812116848631 -0.030654255575916018
2.494E9 0.0023932678857658055 -0.029495608673239866 0.9976067321142343 0.029495608673239866 0.9976067321142343 0.029495608673239866 0.0023932678857658055 -0.029495608673239866
2.515E9 0.0023350658466712135 -0.02834801971789979 0.9976649341533289 0.02834801971789979 0.9976649341533289 0.02834801971789979 0.0023350658466712135 -0.02834801971789979
2.536E9 0.0022801131173406717 -0.027211206934448517 0.9977198868826593 0.027211206934448517 0.9977198868826593 0.027211206934448517 0.0022801131173406717 -0.027211206934448517
2.557E9 0.002228320672659037 -0.02608489724939285 0.9977716793273411 0.02608489724939285 0.9977716793273411 0.02608489724939285 0.002228320672659037 -0.02608489724939285
