!Agilent Technologies,E8364A,US41440144,A.06.04.32
!Agilent E8364A: A.06.04.32
!Date: Thursday, March 11, 2021 17:09:28
!Correction: S11(Full 2 Port(1,2)) S21(Full 2 Port(1,2)) S12(Full 2 Port(1,2)) S22(Full 2 Port(1,2)) 
!S2P File: Measurements: S11, S21, S12, S22:
# Hz S  dB   R 50
1000000000 -4.213938e+001 1.137993e+002 -5.737813e+000 -3.926705e+001 -5.760351e+000 -3.902459e+001 -4.844519e+001 1.306208e+002
1000400000 -4.233813e+001 1.129303e+002 -5.710491e+000 -3.931949e+001 -5.756869e+000 -3.911867e+001 -4.903818e+001 1.370399e+002
1000800000 -4.237678e+001 1.131449e+002 -5.764420e+000 -3.898162e+001 -5.752990e+000 -3.930524e+001 -4.978666e+001 1.335476e+002
1001200000 -4.198840e+001 1.138682e+002 -5.738437e+000 -3.909185e+001 -5.802113e+000 -3.901102e+001 -4.879570e+001 1.382993e+002
1001600000 -4.213935e+001 1.092372e+002 -5.741515e+000 -3.923877e+001 -5.731855e+000 -3.932787e+001 -4.857067e+001 1.385392e+002
1002000000 -4.170612e+001 1.150966e+002 -5.718291e+000 -3.933409e+001 -5.742641e+000 -3.941307e+001 -4.838346e+001 1.380241e+002
1002400000 -4.188030e+001 1.113233e+002 -5.741544e+000 -3.916823e+001 -5.758496e+000 -3.917257e+001 -4.961856e+001 1.393719e+002
1002800000 -4.184723e+001 1.096798e+002 -5.743944e+000 -3.917824e+001 -5.770713e+000 -3.938325e+001 -4.762304e+001 1.352666e+002
1003200000 -4.218441e+001 1.141626e+002 -5.734559e+000 -3.928143e+001 -5.762731e+000 -3.935466e+001 -4.998257e+001 1.356912e+002
1003600000 -4.190385e+001 1.147818e+002 -5.738293e+000 -3.915561e+001 -5.747436e+000 -3.907164e+001 -4.905000e+001 1.367619e+002
1004000000 -4.203252e+001 1.149861e+002 -5.702495e+000 -3.916237e+001 -5.749586e+000 -3.927977e+001 -4.934759e+001 1.401677e+002
1004400000 -4.190187e+001 1.103510e+002 -5.715349e+000 -3.941634e+001 -5.775163e+000 -3.927179e+001 -4.886028e+001 1.415761e+002
1004800000 -4.189399e+001 1.112011e+002 -5.722156e+000 -3.919445e+001 -5.757379e+000 -3.944727e+001 -4.830677e+001 1.383796e+002
1005200000 -4.204220e+001 1.141406e+002 -5.727039e+000 -3.938860e+001 -5.745526e+000 -3.932692e+001 -4.794344e+001 1.481887e+002
1005600000 -4.190297e+001 1.132771e+002 -5.761935e+000 -3.959603e+001 -5.747641e+000 -3.923379e+001 -4.774030e+001 1.429952e+002
1006000000 -4.226939e+001 1.124865e+002 -5.725120e+000 -3.941879e+001 -5.783361e+000 -3.940201e+001 -4.829221e+001 1.437897e+002
1006400000 -4.186089e+001 1.145358e+002 -5.743838e+000 -3.935623e+001 -5.749278e+000 -3.942511e+001 -4.833221e+001 1.407836e+002
1006800000 -4.120578e+001 1.103874e+002 -5.720095e+000 -3.940235e+001 -5.707730e+000 -3.946449e+001 -4.852189e+001 1.386888e+002
1007200000 -4.180861e+001 1.136919e+002 -5.699389e+000 -3.941964e+001 -5.756609e+000 -3.956025e+001 -4.951143e+001 1.403974e+002
1007600000 -4.254375e+001 1.160627e+002 -5.742261e+000 -3.954902e+001 -5.775393e+000 -3.961915e+001 -4.888521e+001 1.381853e+002
1008000000 -4.189035e+001 1.149487e+002 -5.726073e+000 -3.938987e+001 -5.729192e+000 -3.946692e+001 -4.819595e+001 1.448042e+002
1008400000 -4.165870e+001 1.142754e+002 -5.758898e+000 -3.949250e+001 -5.762923e+000 -3.963536e+001 -4.769191e+001 1.458668e+002
1008800000 -4.172578e+001 1.143717e+002 -5.757498e+000 -3.950332e+001 -5.769290e+000 -3.964906e+001 -4.817131e+001 1.390223e+002
1009200000 -4.191938e+001 1.155247e+002 -5.742174e+000 -3.948738e+001 -5.754403e+000 -3.966967e+001 -4.830695e+001 1.485313e+002
1009600000 -4.155811e+001 1.140737e+002 -5.708344e+000 -3.944355e+001 -5.743998e+000 -3.952602e+001 -4.902749e+001 1.470385e+002
1010000000 -4.174725e+001 1.119481e+002 -5.734076e+000 -3.948879e+001 -5.727452e+000 -3.974935e+001 -4.813204e+001 1.400198e+002
1010400000 -4.231769e+001 1.160507e+002 -5.739357e+000 -3.958935e+001 -5.723818e+000 -3.957974e+001 -4.884213e+001 1.395818e+002
1010800000 -4.230920e+001 1.102071e+002 -5.758037e+000 -3.957607e+001 -5.761124e+000 -3.946667e+001 -4.818040e+001 1.286287e+002
1011200000 -4.188646e+001 1.154286e+002 -5.761539e+000 -3.964945e+001 -5.718030e+000 -3.955387e+001 -4.743147e+001 1.421211e+002
1011600000 -4.209474e+001 1.149848e+002 -5.741726e+000 -3.958894e+001 -5.755959e+000 -3.954677e+001 -4.875737e+001 1.340846e+002
1012000000 -4.251699e+001 1.133528e+002 -5.718887e+000 -3.959833e+001 -5.784095e+000 -3.951354e+001 -4.842772e+001 1.356702e+002
1012400000 -4.223333e+001 1.113269e+002 -5.745129e+000 -3.960238e+001 -5.781686e+000 -3.953580e+001 -5.009416e+001 1.383990e+002
1012800000 -4.225588e+001 1.112787e+002 -5.732488e+000 -3.966193e+001 -5.761516e+000 -3.967460e+001 -4.872372e+001 1.398684e+002
1013200000 -4.222425e+001 1.140583e+002 -5.768122e+000 -3.975481e+001 -5.743681e+000 -3.973676e+001 -4.945322e+001 1.422616e+002
1013600000 -4.121842e+001 1.149700e+002 -5.739011e+000 -3.989304e+001 -5.731167e+000 -3.963914e+001 -4.885028e+001 1.388742e+002
1014000000 -4.213073e+001 1.121961e+002 -5.776568e+000 -3.978603e+001 -5.734070e+000 -3.967011e+001 -4.925009e+001 1.346836e+002
1014400000 -4.210612e+001 1.131869e+002 -5.738721e+000 -3.965758e+001 -5.734449e+000 -3.970760e+001 -4.864664e+001 1.387408e+002
1014800000 -4.208961e+001 1.120040e+002 -5.740712e+000 -3.968867e+001 -5.768792e+000 -3.957205e+001 -4.858219e+001 1.386021e+002
1015200000 -4.191132e+001 1.111525e+002 -5.767115e+000 -3.975691e+001 -5.756543e+000 -3.975584e+001 -4.867723e+001 1.274647e+002
1015600000 -4.200537e+001 1.106099e+002 -5.743686e+000 -3.969837e+001 -5.742921e+000 -3.976225e+001 -4.942902e+001 1.411443e+002
1016000000 -4.157995e+001 1.117886e+002 -5.743481e+000 -3.964718e+001 -5.763075e+000 -3.983279e+001 -4.837034e+001 1.514445e+002
1016400000 -4.236242e+001 1.140908e+002 -5.776990e+000 -3.976888e+001 -5.755695e+000 -4.001641e+001 -4.962855e+001 1.299509e+002
1016800000 -4.218169e+001 1.177003e+002 -5.755024e+000 -3.968882e+001 -5.749074e+000 -3.992631e+001 -4.894989e+001 1.444257e+002
1017200000 -4.209324e+001 1.093087e+002 -5.727766e+000 -3.979742e+001 -5.742107e+000 -3.981273e+001 -4.820814e+001 1.409215e+002
1017600000 -4.177422e+001 1.101310e+002 -5.754215e+000 -3.991603e+001 -5.729007e+000 -3.980985e+001 -4.884391e+001 1.360616e+002
1018000000 -4.143373e+001 1.137925e+002 -5.723043e+000 -3.992672e+001 -5.748703e+000 -4.002871e+001 -4.842053e+001 1.440905e+002
1018400000 -4.149834e+001 1.114774e+002 -5.745940e+000 -3.989054e+001 -5.741920e+000 -3.984372e+001 -4.900460e+001 1.429345e+002
1018800000 -4.195555e+001 1.103994e+002 -5.758188e+000 -3.973578e+001 -5.764850e+000 -3.987545e+001 -4.835628e+001 1.475853e+002
1019200000 -4.191829e+001 1.117957e+002 -5.731387e+000 -3.989960e+001 -5.724616e+000 -4.010027e+001 -4.905275e+001 1.451458e+002
1019600000 -4.152491e+001 1.132670e+002 -5.765608e+000 -3.982070e+001 -5.760148e+000 -3.973017e+001 -4.866793e+001 1.364762e+002
1020000000 -4.202591e+001 1.096332e+002 -5.708384e+000 -3.998766e+001 -5.768553e+000 -3.973814e+001 -4.761370e+001 1.397068e+002
1020400000 -4.218870e+001 1.107952e+002 -5.731915e+000 -3.998824e+001 -5.735404e+000 -3.991877e+001 -4.998816e+001 1.415534e+002
1020800000 -4.174443e+001 1.122811e+002 -5.712670e+000 -4.001534e+001 -5.775256e+000 -3.995289e+001 -4.914980e+001 1.500165e+002
1021200000 -4.149181e+001 1.149760e+002 -5.717554e+000 -4.015317e+001 -5.746272e+000 -3.982757e+001 -4.903600e+001 1.417759e+002
1021600000 -4.203443e+001 1.137546e+002 -5.730154e+000 -4.008791e+001 -5.736879e+000 -4.004081e+001 -4.787294e+001 1.421446e+002
1022000000 -4.179852e+001 1.122212e+002 -5.724530e+000 -3.991988e+001 -5.752211e+000 -3.989255e+001 -4.924971e+001 1.461016e+002
1022400000 -4.202697e+001 1.104065e+002 -5.710251e+000 -3.998326e+001 -5.798961e+000 -3.991142e+001 -4.809686e+001 1.405938e+002
1022800000 -4.176143e+001 1.164180e+002 -5.725327e+000 -3.986243e+001 -5.730937e+000 -4.011163e+001 -4.821467e+001 1.453901e+002
1023200000 -4.210411e+001 1.139120e+002 -5.756404e+000 -3.998742e+001 -5.732064e+000 -4.003769e+001 -4.908118e+001 1.396114e+002
1023600000 -4.207555e+001 1.105567e+002 -5.747908e+000 -3.984393e+001 -5.777851e+000 -3.985203e+001 -4.853885e+001 1.442550e+002
1024000000 -4.184627e+001 1.116654e+002 -5.751852e+000 -3.994839e+001 -5.743248e+000 -4.001251e+001 -4.758273e+001 1.387724e+002
1024400000 -4.136816e+001 1.125164e+002 -5.738178e+000 -4.009997e+001 -5.765919e+000 -4.008813e+001 -4.841148e+001 1.366233e+002
1024800000 -4.187399e+001 1.123777e+002 -5.717020e+000 -4.009886e+001 -5.730873e+000 -4.019391e+001 -4.875881e+001 1.322752e+002
1025200000 -4.175761e+001 1.136971e+002 -5.753035e+000 -4.006143e+001 -5.749228e+000 -4.005903e+001 -4.967928e+001 1.396562e+002
1025600000 -4.163445e+001 1.133142e+002 -5.745754e+000 -4.023843e+001 -5.720079e+000 -3.992877e+001 -4.878474e+001 1.453528e+002
1026000000 -4.204771e+001 1.084478e+002 -5.734002e+000 -4.003402e+001 -5.747323e+000 -4.007351e+001 -5.007194e+001 1.415664e+002
1026400000 -4.235722e+001 1.137872e+002 -5.743274e+000 -4.020608e+001 -5.739651e+000 -4.015311e+001 -4.808381e+001 1.395411e+002
1026800000 -4.168447e+001 1.136578e+002 -5.744499e+000 -4.027521e+001 -5.736432e+000 -4.022694e+001 -4.885538e+001 1.370605e+002
1027200000 -4.117502e+001 1.126577e+002 -5.735268e+000 -4.027087e+001 -5.775466e+000 -4.035215e+001 -4.950205e+001 1.487364e+002
1027600000 -4.176299e+001 1.158834e+002 -5.742299e+000 -4.014898e+001 -5.750150e+000 -4.009031e+001 -4.925091e+001 1.472485e+002
1028000000 -4.178346e+001 1.107553e+002 -5.733078e+000 -4.023935e+001 -5.706852e+000 -4.027840e+001 -4.889855e+001 1.352536e+002
1028400000 -4.215497e+001 1.127636e+002 -5.733549e+000 -4.027718e+001 -5.754312e+000 -4.011655e+001 -4.902103e+001 1.397552e+002
1028800000 -4.135141e+001 1.130930e+002 -5.745733e+000 -4.043165e+001 -5.715232e+000 -4.035730e+001 -5.049438e+001 1.456086e+002
1029200000 -4.160094e+001 1.114578e+002 -5.758731e+000 -4.018737e+001 -5.744558e+000 -4.004607e+001 -4.893152e+001 1.412992e+002
1029600000 -4.161615e+001 1.121931e+002 -5.749563e+000 -4.044131e+001 -5.744222e+000 -4.039334e+001 -4.818256e+001 1.323463e+002
1030000000 -4.149767e+001 1.080086e+002 -5.757931e+000 -4.032247e+001 -5.729854e+000 -4.031604e+001 -4.865427e+001 1.436935e+002
1030400000 -4.121275e+001 1.139912e+002 -5.752682e+000 -4.032755e+001 -5.712110e+000 -4.039351e+001 -4.885007e+001 1.373662e+002
1030800000 -4.167178e+001 1.135961e+002 -5.742921e+000 -4.036182e+001 -5.750627e+000 -4.038717e+001 -4.851375e+001 1.394066e+002
1031200000 -4.180005e+001 1.101316e+002 -5.732703e+000 -4.051595e+001 -5.778481e+000 -4.042783e+001 -4.894514e+001 1.419091e+002
1031600000 -4.135458e+001 1.090423e+002 -5.715011e+000 -4.069001e+001 -5.722140e+000 -4.054757e+001 -5.063743e+001 1.364043e+002
1032000000 -4.205359e+001 1.128707e+002 -5.729076e+000 -4.040162e+001 -5.770358e+000 -4.032566e+001 -4.973010e+001 1.421840e+002
1032400000 -4.166398e+001 1.129497e+002 -5.759484e+000 -4.038216e+001 -5.754693e+000 -4.044420e+001 -4.877143e+001 1.432817e+002
1032800000 -4.223140e+001 1.118253e+002 -5.734310e+000 -4.036309e+001 -5.766076e+000 -4.039021e+001 -4.843361e+001 1.379041e+002
1033200000 -4.193320e+001 1.110136e+002 -5.755975e+000 -4.042702e+001 -5.770164e+000 -4.038785e+001 -4.956484e+001 1.468811e+002
1033600000 -4.173890e+001 1.135375e+002 -5.762110e+000 -4.047487e+001 -5.740026e+000 -4.048113e+001 -5.113758e+001 1.444887e+002
1034000000 -4.171453e+001 1.142799e+002 -5.738749e+000 -4.069757e+001 -5.734303e+000 -4.027954e+001 -4.862166e+001 1.436905e+002
1034400000 -4.166869e+001 1.098178e+002 -5.729142e+000 -4.054878e+001 -5.791228e+000 -4.025916e+001 -4.916746e+001 1.384599e+002
1034800000 -4.207597e+001 1.115221e+002 -5.745184e+000 -4.045046e+001 -5.736259e+000 -4.036444e+001 -4.894965e+001 1.423554e+002
1035200000 -4.224057e+001 1.118844e+002 -5.744693e+000 -4.039582e+001 -5.759825e+000 -4.054572e+001 -5.035617e+001 1.488639e+002
1035600000 -4.189871e+001 1.137000e+002 -5.733247e+000 -4.041170e+001 -5.778264e+000 -4.069551e+001 -4.913313e+001 1.402615e+002
1036000000 -4.148228e+001 1.122438e+002 -5.742924e+000 -4.065975e+001 -5.759943e+000 -4.061441e+001 -4.886831e+001 1.425212e+002
1036400000 -4.193729e+001 1.043206e+002 -5.747456e+000 -4.060789e+001 -5.760926e+000 -4.071381e+001 -4.983268e+001 1.352029e+002
1036800000 -4.197976e+001 1.121546e+002 -5.781308e+000 -4.061601e+001 -5.705674e+000 -4.061715e+001 -4.997480e+001 1.372397e+002
1037200000 -4.172902e+001 1.128514e+002 -5.715815e+000 -4.066093e+001 -5.762595e+000 -4.055407e+001 -4.837689e+001 1.437459e+002
1037600000 -4.172050e+001 1.117716e+002 -5.750468e+000 -4.066745e+001 -5.754132e+000 -4.067583e+001 -4.992188e+001 1.380066e+002
1038000000 -4.259127e+001 1.089750e+002 -5.759193e+000 -4.066822e+001 -5.701740e+000 -4.080955e+001 -4.957159e+001 1.457183e+002
1038400000 -4.186336e+001 1.119943e+002 -5.745597e+000 -4.064152e+001 -5.773131e+000 -4.065535e+001 -4.802777e+001 1.411163e+002
1038800000 -4.168950e+001 1.142831e+002 -5.730920e+000 -4.068557e+001 -5.770245e+000 -4.062354e+001 -4.966380e+001 1.399327e+002
1039200000 -4.223365e+001 1.163274e+002 -5.752181e+000 -4.039991e+001 -5.715084e+000 -4.051333e+001 -4.874911e+001 1.364866e+002
1039600000 -4.243252e+001 1.119485e+002 -5.757588e+000 -4.065590e+001 -5.774773e+000 -4.075769e+001 -4.938310e+001 1.376807e+002
1040000000 -4.226056e+001 1.117371e+002 -5.722707e+000 -4.077807e+001 -5.754291e+000 -4.078855e+001 -5.029159e+001 1.386132e+002
1040400000 -4.184041e+001 1.089468e+002 -5.730682e+000 -4.092492e+001 -5.758065e+000 -4.082770e+001 -4.964212e+001 1.401508e+002
1040800000 -4.171424e+001 1.138146e+002 -5.729529e+000 -4.064451e+001 -5.770464e+000 -4.051172e+001 -4.816273e+001 1.410788e+002
1041200000 -4.229218e+001 1.119902e+002 -5.752783e+000 -4.085141e+001 -5.767088e+000 -4.085374e+001 -4.841690e+001 1.330407e+002
1041600000 -4.115659e+001 1.110477e+002 -5.733114e+000 -4.089252e+001 -5.738776e+000 -4.094461e+001 -4.960455e+001 1.410535e+002
1042000000 -4.160086e+001 1.123185e+002 -5.740677e+000 -4.087307e+001 -5.752385e+000 -4.109487e+001 -4.959819e+001 1.388045e+002
1042400000 -4.212219e+001 1.109518e+002 -5.722375e+000 -4.068986e+001 -5.739673e+000 -4.077518e+001 -4.879486e+001 1.431831e+002
1042800000 -4.178873e+001 1.097082e+002 -5.740632e+000 -4.091296e+001 -5.759061e+000 -4.070364e+001 -4.882663e+001 1.378128e+002
1043200000 -4.249942e+001 1.126819e+002 -5.769682e+000 -4.088603e+001 -5.751177e+000 -4.075201e+001 -4.908126e+001 1.432150e+002
1043600000 -4.152652e+001 1.112393e+002 -5.773721e+000 -4.082693e+001 -5.736178e+000 -4.107495e+001 -4.871941e+001 1.321434e+002
1044000000 -4.207229e+001 1.148197e+002 -5.759412e+000 -4.078042e+001 -5.733099e+000 -4.104830e+001 -4.815953e+001 1.414431e+002
1044400000 -4.177143e+001 1.075531e+002 -5.749762e+000 -4.093365e+001 -5.736157e+000 -4.072294e+001 -4.965124e+001 1.494426e+002
1044800000 -4.241082e+001 1.078925e+002 -5.745136e+000 -4.081997e+001 -5.721470e+000 -4.094526e+001 -4.845272e+001 1.318365e+002
1045200000 -4.157870e+001 1.120758e+002 -5.748444e+000 -4.087784e+001 -5.760591e+000 -4.096942e+001 -4.932662e+001 1.412709e+002
1045600000 -4.185955e+001 1.140345e+002 -5.700309e+000 -4.104103e+001 -5.746841e+000 -4.095096e+001 -4.859215e+001 1.423924e+002
1046000000 -4.186510e+001 1.082436e+002 -5.751970e+000 -4.086345e+001 -5.777598e+000 -4.102726e+001 -4.880938e+001 1.422682e+002
1046400000 -4.177184e+001 1.154536e+002 -5.739156e+000 -4.108090e+001 -5.743325e+000 -4.108254e+001 -4.967728e+001 1.464365e+002
1046800000 -4.154511e+001 1.122564e+002 -5.742900e+000 -4.114059e+001 -5.710307e+000 -4.099947e+001 -4.925463e+001 1.395456e+002
1047200000 -4.190970e+001 1.111231e+002 -5.746244e+000 -4.078316e+001 -5.751657e+000 -4.103460e+001 -4.927457e+001 1.361635e+002
1047600000 -4.172966e+001 1.084237e+002 -5.750422e+000 -4.085643e+001 -5.751081e+000 -4.102166e+001 -4.935117e+001 1.291564e+002
1048000000 -4.166288e+001 1.144611e+002 -5.720781e+000 -4.089924e+001 -5.753599e+000 -4.114375e+001 -5.060215e+001 1.385487e+002
1048400000 -4.166167e+001 1.134455e+002 -5.749231e+000 -4.093141e+001 -5.755144e+000 -4.115743e+001 -4.888996e+001 1.480623e+002
1048800000 -4.154945e+001 1.150168e+002 -5.714105e+000 -4.120057e+001 -5.737381e+000 -4.121767e+001 -4.978162e+001 1.349854e+002
1049200000 -4.174036e+001 1.082355e+002 -5.748876e+000 -4.112262e+001 -5.714592e+000 -4.092347e+001 -4.995425e+001 1.389339e+002
1049600000 -4.200057e+001 1.098254e+002 -5.740280e+000 -4.093890e+001 -5.767852e+000 -4.105560e+001 -4.855872e+001 1.400044e+002
1050000000 -4.160033e+001 1.135882e+002 -5.756939e+000 -4.122356e+001 -5.747798e+000 -4.108022e+001 -4.944192e+001 1.450411e+002
1050400000 -4.129161e+001 1.106404e+002 -5.738350e+000 -4.118981e+001 -5.716711e+000 -4.126279e+001 -4.915125e+001 1.404496e+002
1050800000 -4.202354e+001 1.084200e+002 -5.743423e+000 -4.122832e+001 -5.732332e+000 -4.090521e+001 -4.962820e+001 1.373856e+002
1051200000 -4.207335e+001 1.119782e+002 -5.726365e+000 -4.110094e+001 -5.741880e+000 -4.117541e+001 -4.909518e+001 1.426834e+002
1051600000 -4.154732e+001 1.129560e+002 -5.729277e+000 -4.123687e+001 -5.710620e+000 -4.114908e+001 -4.749104e+001 1.388932e+002
1052000000 -4.180199e+001 1.091201e+002 -5.746409e+000 -4.131064e+001 -5.756791e+000 -4.115937e+001 -5.092394e+001 1.431957e+002
1052400000 -4.131378e+001 1.071177e+002 -5.738479e+000 -4.129702e+001 -5.724924e+000 -4.128730e+001 -4.931498e+001 1.384978e+002
1052800000 -4.114725e+001 1.103196e+002 -5.729084e+000 -4.121313e+001 -5.744991e+000 -4.126482e+001 -4.953888e+001 1.482050e+002
1053200000 -4.131119e+001 1.109186e+002 -5.752801e+000 -4.106770e+001 -5.728206e+000 -4.123597e+001 -4.830725e+001 1.341888e+002
1053600000 -4.212302e+001 1.145358e+002 -5.728757e+000 -4.117509e+001 -5.763115e+000 -4.109298e+001 -4.903141e+001 1.359498e+002
1054000000 -4.269687e+001 1.093361e+002 -5.725038e+000 -4.105666e+001 -5.764159e+000 -4.124992e+001 -5.110264e+001 1.376932e+002
1054400000 -4.171179e+001 1.125435e+002 -5.729123e+000 -4.131786e+001 -5.747123e+000 -4.131704e+001 -4.910021e+001 1.387855e+002
1054800000 -4.169291e+001 1.143192e+002 -5.742527e+000 -4.124045e+001 -5.764401e+000 -4.126191e+001 -5.028572e+001 1.431414e+002
1055200000 -4.182679e+001 1.102959e+002 -5.730035e+000 -4.113388e+001 -5.763108e+000 -4.134523e+001 -4.934873e+001 1.366333e+002
1055600000 -4.180490e+001 1.114435e+002 -5.731535e+000 -4.122206e+001 -5.717995e+000 -4.138235e+001 -4.890212e+001 1.399759e+002
1056000000 -4.186199e+001 1.111267e+002 -5.713408e+000 -4.135378e+001 -5.724938e+000 -4.128925e+001 -4.806272e+001 1.457222e+002
1056400000 -4.207299e+001 1.175685e+002 -5.721406e+000 -4.136405e+001 -5.723235e+000 -4.135568e+001 -4.883869e+001 1.391479e+002
1056800000 -4.167431e+001 1.104762e+002 -5.725269e+000 -4.153422e+001 -5.743878e+000 -4.130265e+001 -4.836389e+001 1.426234e+002
1057200000 -4.171457e+001 1.115240e+002 -5.738183e+000 -4.122075e+001 -5.743008e+000 -4.148433e+001 -4.795971e+001 1.351047e+002
1057600000 -4.195959e+001 1.125768e+002 -5.735827e+000 -4.140441e+001 -5.758357e+000 -4.137933e+001 -4.946427e+001 1.409035e+002
1058000000 -4.207729e+001 1.138174e+002 -5.752426e+000 -4.139902e+001 -5.731837e+000 -4.138988e+001 -4.929058e+001 1.517801e+002
1058400000 -4.157848e+001 1.124639e+002 -5.757644e+000 -4.138609e+001 -5.710919e+000 -4.147174e+001 -4.938249e+001 1.452614e+002
1058800000 -4.156532e+001 1.108172e+002 -5.735874e+000 -4.130445e+001 -5.728077e+000 -4.108579e+001 -4.979685e+001 1.409358e+002
1059200000 -4.235129e+001 1.119273e+002 -5.735502e+000 -4.158605e+001 -5.731153e+000 -4.134275e+001 -4.950505e+001 1.477694e+002
1059600000 -4.098367e+001 1.111108e+002 -5.733507e+000 -4.151355e+001 -5.747096e+000 -4.156999e+001 -4.902985e+001 1.464187e+002
1060000000 -4.211927e+001 1.093987e+002 -5.737622e+000 -4.161063e+001 -5.692887e+000 -4.144458e+001 -5.048852e+001 1.446745e+002
1060400000 -4.136150e+001 1.086773e+002 -5.733440e+000 -4.143577e+001 -5.751814e+000 -4.144283e+001 -5.033102e+001 1.366365e+002
