!Agilent Technologies,E8364A,US41440144,A.06.04.32
!Agilent E8364A: A.06.04.32
!Date: Thursday, March 11, 2021 17:12:48
!Correction: S11(Full 2 Port(1,2)) S21(Full 2 Port(1,2)) S12(Full 2 Port(1,2)) S22(Full 2 Port(1,2)) 
!S2P File: Measurements: S11, S21, S12, S22:
# Hz S  dB   R 50
1000000000 -2.274799e+001 1.751110e+002 1.963486e+001 7.043877e+001 -2.275242e+001 -8.012747e+001 -2.730507e+001 1.384539e+002
1000400000 -2.273789e+001 1.748088e+002 1.966537e+001 7.024016e+001 -2.280954e+001 -8.024607e+001 -2.737147e+001 1.387833e+002
1000800000 -2.277266e+001 1.748334e+002 1.963221e+001 7.044239e+001 -2.275213e+001 -8.034703e+001 -2.737387e+001 1.380401e+002
1001200000 -2.269662e+001 1.743090e+002 1.963669e+001 7.037074e+001 -2.276264e+001 -7.985510e+001 -2.725744e+001 1.383386e+002
1001600000 -2.281004e+001 1.749062e+002 1.964640e+001 7.020294e+001 -2.273147e+001 -8.059872e+001 -2.729589e+001 1.377834e+002
1002000000 -2.274154e+001 1.745390e+002 1.965743e+001 7.002383e+001 -2.274866e+001 -8.019204e+001 -2.729516e+001 1.384898e+002
1002400000 -2.274106e+001 1.743591e+002 1.964845e+001 7.027878e+001 -2.274312e+001 -8.013712e+001 -2.725042e+001 1.385535e+002
1002800000 -2.276154e+001 1.742051e+002 1.963666e+001 6.991456e+001 -2.277475e+001 -8.017848e+001 -2.729549e+001 1.382675e+002
1003200000 -2.277662e+001 1.745659e+002 1.963383e+001 7.007175e+001 -2.272188e+001 -8.041490e+001 -2.721573e+001 1.383088e+002
1003600000 -2.276820e+001 1.744312e+002 1.963487e+001 7.010705e+001 -2.272282e+001 -8.037145e+001 -2.720459e+001 1.380648e+002
1004000000 -2.275748e+001 1.741608e+002 1.967007e+001 7.005004e+001 -2.278688e+001 -8.029439e+001 -2.723009e+001 1.381651e+002
1004400000 -2.278737e+001 1.738517e+002 1.965602e+001 6.980935e+001 -2.272673e+001 -8.052309e+001 -2.713439e+001 1.380188e+002
1004800000 -2.282668e+001 1.742313e+002 1.965760e+001 6.994127e+001 -2.275332e+001 -8.075627e+001 -2.716331e+001 1.383274e+002
1005200000 -2.276549e+001 1.744742e+002 1.962408e+001 6.988796e+001 -2.270318e+001 -8.049306e+001 -2.716894e+001 1.383857e+002
1005600000 -2.281964e+001 1.743031e+002 1.962255e+001 6.949068e+001 -2.272953e+001 -8.069766e+001 -2.711551e+001 1.383364e+002
1006000000 -2.280988e+001 1.737077e+002 1.963961e+001 6.954843e+001 -2.273994e+001 -8.077843e+001 -2.711507e+001 1.383988e+002
1006400000 -2.280108e+001 1.740209e+002 1.962747e+001 6.956930e+001 -2.272651e+001 -8.069586e+001 -2.704653e+001 1.377795e+002
1006800000 -2.277427e+001 1.740849e+002 1.963911e+001 6.955609e+001 -2.273738e+001 -8.088777e+001 -2.699429e+001 1.375422e+002
1007200000 -2.281089e+001 1.738402e+002 1.965436e+001 6.950285e+001 -2.270960e+001 -8.085548e+001 -2.702243e+001 1.378255e+002
1007600000 -2.285983e+001 1.743044e+002 1.962419e+001 6.941622e+001 -2.274796e+001 -8.088074e+001 -2.693897e+001 1.375908e+002
1008000000 -2.282751e+001 1.741284e+002 1.963336e+001 6.954528e+001 -2.270766e+001 -8.098847e+001 -2.691116e+001 1.375812e+002
1008400000 -2.279594e+001 1.739998e+002 1.962654e+001 6.939516e+001 -2.273254e+001 -8.097898e+001 -2.696765e+001 1.375407e+002
1008800000 -2.283648e+001 1.738497e+002 1.961058e+001 6.928521e+001 -2.275330e+001 -8.099574e+001 -2.694590e+001 1.380269e+002
1009200000 -2.280869e+001 1.738592e+002 1.964414e+001 6.927779e+001 -2.277168e+001 -8.112522e+001 -2.697056e+001 1.371644e+002
1009600000 -2.279394e+001 1.734514e+002 1.964790e+001 6.918703e+001 -2.271450e+001 -8.097890e+001 -2.687772e+001 1.375484e+002
1010000000 -2.281605e+001 1.735007e+002 1.963438e+001 6.925547e+001 -2.273809e+001 -8.115082e+001 -2.687922e+001 1.367236e+002
1010400000 -2.281542e+001 1.738382e+002 1.962887e+001 6.887955e+001 -2.275949e+001 -8.125749e+001 -2.692274e+001 1.370722e+002
1010800000 -2.276974e+001 1.733704e+002 1.960536e+001 6.902050e+001 -2.282557e+001 -8.138206e+001 -2.684325e+001 1.369785e+002
1011200000 -2.291398e+001 1.736536e+002 1.961138e+001 6.891333e+001 -2.271776e+001 -8.128079e+001 -2.683090e+001 1.373222e+002
1011600000 -2.290156e+001 1.737678e+002 1.961322e+001 6.889467e+001 -2.271176e+001 -8.108375e+001 -2.675161e+001 1.370597e+002
1012000000 -2.286816e+001 1.736667e+002 1.965570e+001 6.888847e+001 -2.277606e+001 -8.101517e+001 -2.682585e+001 1.370746e+002
1012400000 -2.283421e+001 1.730123e+002 1.963790e+001 6.890581e+001 -2.277331e+001 -8.178298e+001 -2.690766e+001 1.361856e+002
1012800000 -2.291787e+001 1.731548e+002 1.965724e+001 6.872591e+001 -2.273973e+001 -8.144192e+001 -2.673139e+001 1.365052e+002
1013200000 -2.293715e+001 1.735415e+002 1.959711e+001 6.860101e+001 -2.277502e+001 -8.178567e+001 -2.673127e+001 1.366660e+002
1013600000 -2.285825e+001 1.732828e+002 1.964106e+001 6.858947e+001 -2.269823e+001 -8.134097e+001 -2.673842e+001 1.370698e+002
1014000000 -2.291717e+001 1.733970e+002 1.961470e+001 6.858707e+001 -2.266267e+001 -8.151273e+001 -2.667184e+001 1.368506e+002
1014400000 -2.291718e+001 1.730900e+002 1.963596e+001 6.868065e+001 -2.273802e+001 -8.163236e+001 -2.670264e+001 1.370702e+002
1014800000 -2.292121e+001 1.731129e+002 1.961748e+001 6.846152e+001 -2.269381e+001 -8.195447e+001 -2.666241e+001 1.365481e+002
1015200000 -2.287911e+001 1.728918e+002 1.961704e+001 6.853140e+001 -2.275727e+001 -8.195938e+001 -2.665564e+001 1.362367e+002
1015600000 -2.292997e+001 1.723444e+002 1.963832e+001 6.847342e+001 -2.273513e+001 -8.167336e+001 -2.670140e+001 1.365751e+002
1016000000 -2.296320e+001 1.727336e+002 1.964779e+001 6.853847e+001 -2.274705e+001 -8.165492e+001 -2.660568e+001 1.364729e+002
1016400000 -2.289977e+001 1.733002e+002 1.961115e+001 6.837782e+001 -2.273073e+001 -8.232613e+001 -2.664562e+001 1.362573e+002
1016800000 -2.295064e+001 1.727063e+002 1.960505e+001 6.838422e+001 -2.273020e+001 -8.193069e+001 -2.662086e+001 1.360374e+002
1017200000 -2.291511e+001 1.727507e+002 1.963353e+001 6.825607e+001 -2.273892e+001 -8.187395e+001 -2.653193e+001 1.357135e+002
1017600000 -2.293221e+001 1.725401e+002 1.962502e+001 6.808379e+001 -2.268863e+001 -8.167113e+001 -2.652813e+001 1.363899e+002
1018000000 -2.293284e+001 1.722941e+002 1.963333e+001 6.803576e+001 -2.270159e+001 -8.225037e+001 -2.651421e+001 1.358645e+002
1018400000 -2.294097e+001 1.726762e+002 1.960851e+001 6.807382e+001 -2.269870e+001 -8.175863e+001 -2.656594e+001 1.364493e+002
1018800000 -2.290973e+001 1.723826e+002 1.961190e+001 6.806723e+001 -2.274171e+001 -8.222836e+001 -2.656779e+001 1.362275e+002
1019200000 -2.291716e+001 1.723834e+002 1.965273e+001 6.798962e+001 -2.271082e+001 -8.236797e+001 -2.654992e+001 1.360967e+002
1019600000 -2.289369e+001 1.721422e+002 1.960829e+001 6.789106e+001 -2.280594e+001 -8.211267e+001 -2.648366e+001 1.362116e+002
1020000000 -2.298765e+001 1.720782e+002 1.965826e+001 6.779416e+001 -2.277378e+001 -8.216101e+001 -2.637924e+001 1.364261e+002
1020400000 -2.296984e+001 1.725735e+002 1.964107e+001 6.786238e+001 -2.272139e+001 -8.206335e+001 -2.647540e+001 1.359866e+002
1020800000 -2.297274e+001 1.718402e+002 1.965832e+001 6.782999e+001 -2.273385e+001 -8.209230e+001 -2.646100e+001 1.357050e+002
1021200000 -2.291360e+001 1.720108e+002 1.967165e+001 6.758621e+001 -2.275848e+001 -8.194492e+001 -2.637214e+001 1.356875e+002
1021600000 -2.297276e+001 1.723697e+002 1.964114e+001 6.770710e+001 -2.272578e+001 -8.221433e+001 -2.636129e+001 1.354742e+002
1022000000 -2.298363e+001 1.719372e+002 1.963701e+001 6.770263e+001 -2.272693e+001 -8.220071e+001 -2.646799e+001 1.357029e+002
1022400000 -2.301790e+001 1.718798e+002 1.964532e+001 6.759225e+001 -2.272194e+001 -8.220785e+001 -2.636951e+001 1.354032e+002
1022800000 -2.296919e+001 1.722574e+002 1.963281e+001 6.760518e+001 -2.270083e+001 -8.285255e+001 -2.635215e+001 1.357416e+002
1023200000 -2.302526e+001 1.716976e+002 1.962465e+001 6.747223e+001 -2.275315e+001 -8.260800e+001 -2.638430e+001 1.356736e+002
1023600000 -2.296117e+001 1.718097e+002 1.961965e+001 6.760332e+001 -2.277365e+001 -8.235046e+001 -2.635851e+001 1.353996e+002
1024000000 -2.297369e+001 1.716810e+002 1.961955e+001 6.750862e+001 -2.274282e+001 -8.241835e+001 -2.633091e+001 1.353828e+002
1024400000 -2.296984e+001 1.717046e+002 1.961971e+001 6.726315e+001 -2.273269e+001 -8.261536e+001 -2.631855e+001 1.360195e+002
1024800000 -2.298836e+001 1.717462e+002 1.967015e+001 6.719209e+001 -2.268117e+001 -8.256544e+001 -2.620585e+001 1.355684e+002
1025200000 -2.300548e+001 1.716650e+002 1.962312e+001 6.723949e+001 -2.274072e+001 -8.286026e+001 -2.625297e+001 1.349452e+002
1025600000 -2.300925e+001 1.720372e+002 1.962251e+001 6.709034e+001 -2.270706e+001 -8.260030e+001 -2.628421e+001 1.351632e+002
1026000000 -2.302658e+001 1.713107e+002 1.960390e+001 6.707563e+001 -2.272762e+001 -8.278864e+001 -2.617625e+001 1.353399e+002
1026400000 -2.309836e+001 1.716662e+002 1.962407e+001 6.708133e+001 -2.274978e+001 -8.240910e+001 -2.630220e+001 1.349000e+002
1026800000 -2.298582e+001 1.709315e+002 1.963717e+001 6.695686e+001 -2.273297e+001 -8.262634e+001 -2.619096e+001 1.355435e+002
1027200000 -2.301567e+001 1.711662e+002 1.962879e+001 6.681587e+001 -2.275841e+001 -8.288157e+001 -2.616967e+001 1.353310e+002
1027600000 -2.305470e+001 1.717919e+002 1.961793e+001 6.698338e+001 -2.270931e+001 -8.303163e+001 -2.612631e+001 1.347279e+002
1028000000 -2.309333e+001 1.711738e+002 1.961913e+001 6.676392e+001 -2.269066e+001 -8.269742e+001 -2.617977e+001 1.348150e+002
1028400000 -2.301511e+001 1.709651e+002 1.964592e+001 6.676403e+001 -2.274613e+001 -8.296990e+001 -2.612719e+001 1.351378e+002
1028800000 -2.302511e+001 1.711474e+002 1.962789e+001 6.661703e+001 -2.270038e+001 -8.307589e+001 -2.612589e+001 1.342677e+002
1029200000 -2.308559e+001 1.712410e+002 1.960921e+001 6.676740e+001 -2.275520e+001 -8.322427e+001 -2.612239e+001 1.348358e+002
1029600000 -2.308898e+001 1.710446e+002 1.962353e+001 6.647304e+001 -2.276120e+001 -8.309248e+001 -2.602966e+001 1.347647e+002
1030000000 -2.302042e+001 1.703758e+002 1.961277e+001 6.656140e+001 -2.270693e+001 -8.326756e+001 -2.603182e+001 1.345935e+002
1030400000 -2.305237e+001 1.709296e+002 1.958344e+001 6.641884e+001 -2.272511e+001 -8.309799e+001 -2.598753e+001 1.343900e+002
1030800000 -2.299878e+001 1.711482e+002 1.961050e+001 6.638676e+001 -2.272757e+001 -8.343574e+001 -2.603015e+001 1.344090e+002
1031200000 -2.310900e+001 1.709806e+002 1.961660e+001 6.629675e+001 -2.276461e+001 -8.353520e+001 -2.597883e+001 1.346572e+002
1031600000 -2.311835e+001 1.707611e+002 1.964074e+001 6.605837e+001 -2.274266e+001 -8.350723e+001 -2.603386e+001 1.342880e+002
1032000000 -2.307889e+001 1.705723e+002 1.963992e+001 6.634354e+001 -2.274206e+001 -8.320776e+001 -2.605826e+001 1.343435e+002
1032400000 -2.313221e+001 1.710805e+002 1.961030e+001 6.636400e+001 -2.271622e+001 -8.354853e+001 -2.594606e+001 1.349503e+002
1032800000 -2.310252e+001 1.702315e+002 1.963393e+001 6.632849e+001 -2.274996e+001 -8.362988e+001 -2.587896e+001 1.339346e+002
1033200000 -2.312822e+001 1.707113e+002 1.957811e+001 6.612319e+001 -2.272776e+001 -8.330397e+001 -2.602006e+001 1.340471e+002
1033600000 -2.307085e+001 1.706869e+002 1.959799e+001 6.608408e+001 -2.273540e+001 -8.335846e+001 -2.587718e+001 1.341556e+002
1034000000 -2.309417e+001 1.702661e+002 1.961260e+001 6.593121e+001 -2.271049e+001 -8.322881e+001 -2.589563e+001 1.348753e+002
1034400000 -2.312575e+001 1.707317e+002 1.960195e+001 6.608276e+001 -2.275606e+001 -8.352023e+001 -2.591070e+001 1.340955e+002
1034800000 -2.315669e+001 1.703864e+002 1.960512e+001 6.615980e+001 -2.273260e+001 -8.346413e+001 -2.596003e+001 1.334398e+002
1035200000 -2.305732e+001 1.704618e+002 1.962310e+001 6.614598e+001 -2.277691e+001 -8.380877e+001 -2.595334e+001 1.339049e+002
1035600000 -2.310748e+001 1.702387e+002 1.962380e+001 6.581313e+001 -2.274425e+001 -8.378531e+001 -2.577676e+001 1.336377e+002
1036000000 -2.318225e+001 1.700398e+002 1.961640e+001 6.566518e+001 -2.277838e+001 -8.378283e+001 -2.584113e+001 1.334533e+002
1036400000 -2.310144e+001 1.699962e+002 1.960882e+001 6.571938e+001 -2.273129e+001 -8.376802e+001 -2.580574e+001 1.333966e+002
1036800000 -2.308043e+001 1.701404e+002 1.959080e+001 6.574251e+001 -2.273172e+001 -8.403490e+001 -2.580980e+001 1.336624e+002
1037200000 -2.313246e+001 1.701533e+002 1.962023e+001 6.554612e+001 -2.270169e+001 -8.364227e+001 -2.576028e+001 1.333806e+002
1037600000 -2.321204e+001 1.701152e+002 1.960557e+001 6.566981e+001 -2.276299e+001 -8.379762e+001 -2.579913e+001 1.334290e+002
1038000000 -2.321210e+001 1.700176e+002 1.961059e+001 6.559037e+001 -2.271858e+001 -8.405540e+001 -2.574360e+001 1.335416e+002
1038400000 -2.315495e+001 1.698441e+002 1.960659e+001 6.552656e+001 -2.275040e+001 -8.405083e+001 -2.575598e+001 1.331269e+002
1038800000 -2.317036e+001 1.695737e+002 1.961885e+001 6.537586e+001 -2.277435e+001 -8.407382e+001 -2.564865e+001 1.338246e+002
1039200000 -2.316695e+001 1.701105e+002 1.960691e+001 6.566076e+001 -2.275161e+001 -8.417817e+001 -2.564581e+001 1.332174e+002
1039600000 -2.317529e+001 1.697936e+002 1.960632e+001 6.526521e+001 -2.278691e+001 -8.392014e+001 -2.568227e+001 1.331807e+002
1040000000 -2.315254e+001 1.695214e+002 1.962880e+001 6.518669e+001 -2.270111e+001 -8.435075e+001 -2.559737e+001 1.331154e+002
1040400000 -2.316030e+001 1.696933e+002 1.960710e+001 6.510796e+001 -2.268098e+001 -8.442233e+001 -2.565352e+001 1.337350e+002
1040800000 -2.314421e+001 1.693451e+002 1.962443e+001 6.527077e+001 -2.279040e+001 -8.412540e+001 -2.561987e+001 1.332156e+002
1041200000 -2.315449e+001 1.696208e+002 1.959307e+001 6.502126e+001 -2.272947e+001 -8.432187e+001 -2.563727e+001 1.322124e+002
1041600000 -2.315617e+001 1.693276e+002 1.963322e+001 6.496391e+001 -2.269814e+001 -8.421758e+001 -2.557520e+001 1.331968e+002
1042000000 -2.321642e+001 1.692038e+002 1.961315e+001 6.495049e+001 -2.274208e+001 -8.465893e+001 -2.563464e+001 1.322529e+002
1042400000 -2.321881e+001 1.696697e+002 1.963031e+001 6.510591e+001 -2.274838e+001 -8.408022e+001 -2.553511e+001 1.331046e+002
1042800000 -2.317577e+001 1.692086e+002 1.961695e+001 6.491123e+001 -2.277301e+001 -8.426513e+001 -2.565833e+001 1.328798e+002
1043200000 -2.323086e+001 1.696932e+002 1.961088e+001 6.482348e+001 -2.276937e+001 -8.421438e+001 -2.559127e+001 1.326546e+002
1043600000 -2.322030e+001 1.690924e+002 1.960992e+001 6.477342e+001 -2.271085e+001 -8.474131e+001 -2.554359e+001 1.325032e+002
1044000000 -2.322647e+001 1.694583e+002 1.959384e+001 6.491731e+001 -2.272530e+001 -8.494754e+001 -2.547891e+001 1.331287e+002
1044400000 -2.323078e+001 1.688688e+002 1.960874e+001 6.470195e+001 -2.271731e+001 -8.458400e+001 -2.552193e+001 1.327298e+002
1044800000 -2.322522e+001 1.692609e+002 1.960629e+001 6.466295e+001 -2.270805e+001 -8.440340e+001 -2.550514e+001 1.324124e+002
1045200000 -2.322992e+001 1.689454e+002 1.961113e+001 6.458492e+001 -2.276237e+001 -8.465561e+001 -2.542782e+001 1.322390e+002
1045600000 -2.323335e+001 1.693212e+002 1.962329e+001 6.448586e+001 -2.273501e+001 -8.482099e+001 -2.548878e+001 1.323864e+002
1046000000 -2.329577e+001 1.684438e+002 1.959870e+001 6.454401e+001 -2.278862e+001 -8.480235e+001 -2.547169e+001 1.327165e+002
1046400000 -2.318798e+001 1.691494e+002 1.959790e+001 6.427357e+001 -2.275118e+001 -8.475035e+001 -2.544674e+001 1.324542e+002
1046800000 -2.321622e+001 1.690983e+002 1.960206e+001 6.441873e+001 -2.271423e+001 -8.472124e+001 -2.549858e+001 1.328073e+002
1047200000 -2.321761e+001 1.684902e+002 1.960043e+001 6.449379e+001 -2.273735e+001 -8.497592e+001 -2.542837e+001 1.326931e+002
1047600000 -2.324946e+001 1.689047e+002 1.958258e+001 6.448114e+001 -2.268896e+001 -8.489790e+001 -2.534064e+001 1.326532e+002
1048000000 -2.322822e+001 1.687558e+002 1.962949e+001 6.445130e+001 -2.275840e+001 -8.529088e+001 -2.543596e+001 1.315397e+002
1048400000 -2.324951e+001 1.685520e+002 1.960498e+001 6.422705e+001 -2.276080e+001 -8.491736e+001 -2.537153e+001 1.320960e+002
1048800000 -2.330428e+001 1.690556e+002 1.961902e+001 6.406029e+001 -2.273034e+001 -8.518716e+001 -2.540872e+001 1.317222e+002
1049200000 -2.331117e+001 1.686247e+002 1.960406e+001 6.416670e+001 -2.271766e+001 -8.503851e+001 -2.531638e+001 1.315847e+002
1049600000 -2.329223e+001 1.689580e+002 1.958683e+001 6.423197e+001 -2.270688e+001 -8.501426e+001 -2.532465e+001 1.320037e+002
1050000000 -2.325089e+001 1.683029e+002 1.959293e+001 6.400799e+001 -2.274981e+001 -8.548280e+001 -2.536764e+001 1.317201e+002
1050400000 -2.331968e+001 1.682824e+002 1.959932e+001 6.374938e+001 -2.271705e+001 -8.555720e+001 -2.529296e+001 1.317648e+002
1050800000 -2.330776e+001 1.680548e+002 1.959679e+001 6.393756e+001 -2.268982e+001 -8.518560e+001 -2.531226e+001 1.312043e+002
1051200000 -2.331872e+001 1.686521e+002 1.961403e+001 6.398028e+001 -2.277804e+001 -8.516292e+001 -2.531753e+001 1.320581e+002
1051600000 -2.335688e+001 1.684163e+002 1.960033e+001 6.376165e+001 -2.266097e+001 -8.553181e+001 -2.516969e+001 1.317268e+002
1052000000 -2.331944e+001 1.678786e+002 1.961334e+001 6.359638e+001 -2.276019e+001 -8.543417e+001 -2.532157e+001 1.314624e+002
1052400000 -2.325205e+001 1.678309e+002 1.958676e+001 6.351359e+001 -2.272981e+001 -8.566123e+001 -2.524432e+001 1.316145e+002
1052800000 -2.328325e+001 1.681446e+002 1.959638e+001 6.373514e+001 -2.268997e+001 -8.531542e+001 -2.520998e+001 1.320910e+002
1053200000 -2.329884e+001 1.676702e+002 1.960577e+001 6.363617e+001 -2.273473e+001 -8.575711e+001 -2.521670e+001 1.317370e+002
1053600000 -2.329638e+001 1.681986e+002 1.959918e+001 6.362566e+001 -2.274191e+001 -8.518948e+001 -2.523079e+001 1.316003e+002
1054000000 -2.334324e+001 1.685119e+002 1.961018e+001 6.372803e+001 -2.278549e+001 -8.535971e+001 -2.519486e+001 1.318523e+002
1054400000 -2.331743e+001 1.677055e+002 1.959926e+001 6.336144e+001 -2.273459e+001 -8.582388e+001 -2.521615e+001 1.310961e+002
1054800000 -2.335918e+001 1.677973e+002 1.959468e+001 6.338161e+001 -2.277754e+001 -8.581652e+001 -2.521256e+001 1.311542e+002
1055200000 -2.330684e+001 1.675266e+002 1.960542e+001 6.353691e+001 -2.272339e+001 -8.566725e+001 -2.509079e+001 1.307588e+002
1055600000 -2.337493e+001 1.677382e+002 1.959426e+001 6.339305e+001 -2.273358e+001 -8.560675e+001 -2.518258e+001 1.312957e+002
1056000000 -2.333053e+001 1.677942e+002 1.960179e+001 6.320880e+001 -2.274973e+001 -8.608635e+001 -2.515234e+001 1.313387e+002
1056400000 -2.331696e+001 1.680497e+002 1.959909e+001 6.313733e+001 -2.275610e+001 -8.553663e+001 -2.510652e+001 1.310664e+002
1056800000 -2.332948e+001 1.677542e+002 1.959447e+001 6.306477e+001 -2.273836e+001 -8.579654e+001 -2.509609e+001 1.312906e+002
1057200000 -2.335793e+001 1.679257e+002 1.958346e+001 6.312604e+001 -2.275521e+001 -8.617503e+001 -2.505937e+001 1.310183e+002
1057600000 -2.336881e+001 1.678885e+002 1.958418e+001 6.289783e+001 -2.276689e+001 -8.580859e+001 -2.507302e+001 1.310452e+002
1058000000 -2.336424e+001 1.673370e+002 1.959597e+001 6.293464e+001 -2.277025e+001 -8.594822e+001 -2.506796e+001 1.310376e+002
1058400000 -2.333774e+001 1.675463e+002 1.957751e+001 6.294537e+001 -2.276332e+001 -8.586942e+001 -2.505606e+001 1.306449e+002
1058800000 -2.338939e+001 1.670782e+002 1.958619e+001 6.295267e+001 -2.277785e+001 -8.597087e+001 -2.511705e+001 1.306332e+002
1059200000 -2.339192e+001 1.675028e+002 1.959847e+001 6.277052e+001 -2.270689e+001 -8.590472e+001 -2.497954e+001 1.307228e+002
1059600000 -2.334561e+001 1.669939e+002 1.959462e+001 6.282702e+001 -2.278598e+001 -8.654969e+001 -2.503993e+001 1.306738e+002
1060000000 -2.341321e+001 1.670836e+002 1.960125e+001 6.269395e+001 -2.264922e+001 -8.597661e+001 -2.501526e+001 1.308099e+002
1060400000 -2.342314e+001 1.670611e+002 1.958936e+001 6.271432e+001 -2.274971e+001 -8.618495e+001 -2.491197e+001 1.306721e+002
1060800000 -2.334104e+001 1.674773e+002 1.959465e+001 6.279409e+001 -2.272451e+001 -8.627365e+001 -2.491730e+001 1.306031e+002
1061200000 -2.336845e+001 1.670162e+002 1.958002e+001 6.251699e+001 -2.271673e+001 -8.617619e+001 -2.494446e+001 1.300843e+002
1061600000 -2.335941e+001 1.669618e+002 1.957766e+001 6.243054e+001 -2.272310e+001 -8.645362e+001 -2.486765e+001 1.295860e+002
